T18DC 000:021.330   SEGGER J-Link V7.80a Log File
T18DC 000:021.456   DLL Compiled: Sep 14 2022 15:37:44
T18DC 000:021.466   Logging started @ 2022-09-23 12:59
T18DC 000:021.471 - 21.474ms
T18DC 000:021.482 JLINK_SetWarnOutHandler(...)
T18DC 000:021.489 - 0.010ms
T18DC 000:021.496 JLINK_OpenEx(...)
T18DC 000:023.174   Firmware: J-Link V9 compiled May  7 2021 16:26:12
T18DC 000:023.507   Firmware: J-Link V9 compiled May  7 2021 16:26:12
T18DC 000:023.744   Decompressing FW timestamp took 194 us
T18DC 000:030.012   Hardware: V9.20
T18DC 000:030.057   S/N: 4294967295
T18DC 000:030.068   OEM: SEGGER
T18DC 000:030.078   Feature(s): GDB, RDI, FlashBP, FlashDL, JFlash
T18DC 000:031.411   TELNET listener socket opened on port 19021
T18DC 000:031.829   WEBSRV WEBSRV_Init(): Starting webserver thread(s)
T18DC 000:031.985   WEBSRV Webserver running on local port 19080
T18DC 000:038.809 - 17.480ms returns "O.K."
T18DC 000:039.018 JLINK_GetEmuCaps()
T18DC 000:039.034 - 0.021ms returns 0xB9FF7BBF
T18DC 000:039.051 JLINK_TIF_GetAvailable(...)
T18DC 000:039.226 - 0.195ms
T18DC 000:039.254 JLINK_SetErrorOutHandler(...)
T18DC 000:039.272 - 0.020ms
T18DC 000:039.295 JLINK_ExecCommand("ProjectFile = "E:\LocalRepository\web_socket_stm32f4\MDK-ARM\JLinkSettings.ini"", ...). 
T18DC 000:054.382   Ref file found at: C:\Keil_v5\ARM\Segger\JLinkDevices.ref
T18DC 000:054.557   REF file references invalid XML file: C:\Program Files\SEGGER\JLink\JLinkDevices.xml
T18DC 000:054.815 - 15.527ms returns 0x00
T18DC 000:054.859 JLINK_ExecCommand("Device = STM32F429IITx", ...). 
T18DC 000:056.137   OFL: Init() present @ offset 0x00000649
T18DC 000:056.158   OFL: UnInit() present @ offset 0x00000663
T18DC 000:056.167   OFL: EraseSector() present @ offset 0x00000671
T18DC 000:056.175   OFL: ProgramPage() present @ offset 0x000006E9
T18DC 000:056.183   OFL: EraseChip() N/A
T18DC 000:056.191   OFL: BlankCheck() N/A
T18DC 000:056.199   OFL: Verify() N/A
T18DC 000:056.207   OFL: SEGGER_FL_Erase() N/A
T18DC 000:056.215   OFL: SEGGER_OPEN_Erase() N/A
T18DC 000:056.223   OFL: SEGGER_FL_Program() N/A
T18DC 000:056.231   OFL: SEGGER_OPEN_Program() N/A
T18DC 000:056.239   OFL: SEGGER_FL_Read() N/A
T18DC 000:056.247   OFL: SEGGER_OPEN_Read() N/A
T18DC 000:056.255   OFL: SEGGER_FL_CalcCRC() N/A
T18DC 000:056.263   OFL: SEGGER_OPEN_CalcCRC() N/A
T18DC 000:056.271   OFL: SEGGER_FL_Start() N/A
T18DC 000:056.279   OFL: SEGGER_OPEN_Start() N/A
T18DC 000:056.287   OFL: SEGGER_FL_GetFlashInfo() N/A
T18DC 000:056.295   OFL: SEGGER_OPEN_GetFlashInfo() N/A
T18DC 000:056.303   OFL: SEGGER_FL_Verify() N/A
T18DC 000:056.311   OFL: SEGGER_FL_CheckBlank() N/A
T18DC 000:056.319   OFL: SEGGER_FL_Prepare() N/A
T18DC 000:056.327   OFL: SEGGER_FL_Restore() N/A
T18DC 000:056.335   OFL: SEGGER_FL_EraseChip() N/A
T18DC 000:059.009   Device "STM32F429II" selected.
T18DC 000:059.652 - 4.797ms returns 0x00
T18DC 000:059.684 JLINK_ExecCommand("DisableConnectionTimeout", ...). 
T18DC 000:059.700 - 0.008ms returns 0x01
T18DC 000:059.712 JLINK_GetHardwareVersion()
T18DC 000:059.721 - 0.013ms returns 92000
T18DC 000:059.732 JLINK_GetDLLVersion()
T18DC 000:059.748 - 0.020ms returns 78001
T18DC 000:059.758 JLINK_GetOEMString(...)
T18DC 000:059.768 JLINK_GetFirmwareString(...)
T18DC 000:059.774 - 0.009ms
T18DC 000:059.811 JLINK_GetDLLVersion()
T18DC 000:059.818 - 0.009ms returns 78001
T18DC 000:059.824 JLINK_GetCompileDateTime()
T18DC 000:059.829 - 0.007ms
T18DC 000:059.841 JLINK_GetFirmwareString(...)
T18DC 000:059.847 - 0.008ms
T18DC 000:059.857 JLINK_GetHardwareVersion()
T18DC 000:059.863 - 0.008ms returns 92000
T18DC 000:059.874 JLINK_GetSN()
T18DC 000:059.881 - 0.009ms returns -1
T18DC 000:059.887 JLINK_GetOEMString(...)
T18DC 000:059.900 JLINK_TIF_Select(JLINKARM_TIF_JTAG)
T18DC 000:060.866 - 0.977ms returns 0x00
T18DC 000:060.886 JLINK_HasError()
T18DC 000:060.898 JLINK_SetSpeed(5000)
T18DC 000:061.011 - 0.125ms
T18DC 000:061.032 JLINK_GetIdData(pIdData)
T18DC 000:061.269   InitTarget() start
T18DC 000:061.289    J-Link Script File: Executing InitTarget()
T18DC 000:062.601   TotalIRLen = 9, IRPrint = 0x0011
T18DC 000:063.110   JTAG chain detection found 2 devices:
T18DC 000:063.136    #0 Id: 0x4BA00477, IRLen: 04, CoreSight JTAG-DP
T18DC 000:063.152    #1 Id: 0x06419041, IRLen: 05, STM32 Boundary Scan
T18DC 000:068.637   InitTarget() end
T18DC 000:069.483   TotalIRLen = 9, IRPrint = 0x0011
T18DC 000:069.806   JTAG chain detection found 2 devices:
T18DC 000:069.826    #0 Id: 0x4BA00477, IRLen: 04, CoreSight JTAG-DP
T18DC 000:069.842    #1 Id: 0x06419041, IRLen: 05, STM32 Boundary Scan
T18DC 000:070.866   DPv0 detected
T18DC 000:070.888   Scanning AP map to find all available APs
T18DC 000:071.321   AP[1]: Stopped AP scan as end of AP map has been reached
T18DC 000:071.339   AP[0]: AHB-AP (IDR: 0x24770011)
T18DC 000:071.355   Iterating through AP map to find AHB-AP to use
T18DC 000:072.021   AP[0]: Core found
T18DC 000:072.038   AP[0]: AHB-AP ROM base: 0xE00FF000
T18DC 000:072.367   CPUID register: 0x410FC241. Implementer code: 0x41 (ARM)
T18DC 000:072.386   Found Cortex-M4 r0p1, Little endian.
T18DC 000:072.613   -- Max. mem block: 0x00010E60
T18DC 000:072.715   CPU_ReadMem(4 bytes @ 0xE000EDF0)
T18DC 000:073.740   CPU_ReadMem(4 bytes @ 0xE0002000)
T18DC 000:073.998   FPUnit: 6 code (BP) slots and 2 literal slots
T18DC 000:074.011   CPU_ReadMem(4 bytes @ 0xE000EDFC)
T18DC 000:074.283   CPU_WriteMem(4 bytes @ 0xE000EDFC)
T18DC 000:074.506   CPU_ReadMem(4 bytes @ 0xE0001000)
T18DC 000:074.753   CPU_WriteMem(4 bytes @ 0xE0001000)
T18DC 000:074.977   CPU_ReadMem(4 bytes @ 0xE000ED88)
T18DC 000:075.282   CPU_WriteMem(4 bytes @ 0xE000ED88)
T18DC 000:075.503   CPU_ReadMem(4 bytes @ 0xE000ED88)
T18DC 000:075.752   CPU_WriteMem(4 bytes @ 0xE000ED88)
T18DC 000:075.980   CoreSight components:
T18DC 000:076.000   ROMTbl[0] @ E00FF000
T18DC 000:076.011   CPU_ReadMem(64 bytes @ 0xE00FF000)
T18DC 000:076.686   CPU_ReadMem(32 bytes @ 0xE000EFE0)
T18DC 000:077.148   [0][0]: E000E000 CID B105E00D PID 000BB00C SCS-M7
T18DC 000:077.161   CPU_ReadMem(32 bytes @ 0xE0001FE0)
T18DC 000:077.554   [0][1]: E0001000 CID B105E00D PID 003BB002 DWT
T18DC 000:077.567   CPU_ReadMem(32 bytes @ 0xE0002FE0)
T18DC 000:077.963   [0][2]: E0002000 CID B105E00D PID 002BB003 FPB
T18DC 000:077.976   CPU_ReadMem(32 bytes @ 0xE0000FE0)
T18DC 000:078.419   [0][3]: E0000000 CID B105E00D PID 003BB001 ITM
T18DC 000:078.431   CPU_ReadMem(32 bytes @ 0xE0040FE0)
T18DC 000:078.826   [0][4]: E0040000 CID B105900D PID 000BB9A1 TPIU
T18DC 000:078.839   CPU_ReadMem(32 bytes @ 0xE0041FE0)
T18DC 000:079.231   [0][5]: E0041000 CID B105900D PID 000BB925 ETM
T18DC 000:079.272   pIdData->ScanLen=9
T18DC 000:079.282   
T18DC 000:079.289   pIdData->NumDevices=2
T18DC 000:079.299   
T18DC 000:079.305   pIdData->aId[0]=0x4BA00477
T18DC 000:079.315   
T18DC 000:079.321   pIdData->aIrRead[0]=0
T18DC 000:079.330   
T18DC 000:079.337   pIdData->aScanLen[0]=0
T18DC 000:079.350   
T18DC 000:079.357   pIdData->aScanRead[0]=0
T18DC 000:079.367   
T18DC 000:079.373 - 18.344ms
T18DC 000:079.389 JLINK_JTAG_GetDeviceID(DeviceIndex = 0)
T18DC 000:079.396 - 0.010ms returns 1268778103
T18DC 000:079.406 JLINK_JTAG_GetDeviceInfo(DeviceIndex = 0)
T18DC 000:079.413 - 0.010ms returns 0
T18DC 000:079.421 JLINK_JTAG_GetDeviceID(DeviceIndex = 1)
T18DC 000:079.428 - 0.010ms returns 104960065
T18DC 000:079.438 JLINK_JTAG_GetDeviceInfo(DeviceIndex = 1)
T18DC 000:079.444 - 0.009ms returns 0
T18DC 000:079.495 JLINK_GetDLLVersion()
T18DC 000:079.503 - 0.011ms returns 78001
T18DC 000:079.511 JLINK_CORE_GetFound()
T18DC 000:079.518 - 0.010ms returns 0xE0000FF
T18DC 000:079.527 JLINK_GetDebugInfo(0x100 = JLINKARM_ROM_TABLE_ADDR_INDEX)
T18DC 000:079.535   Value=0xE00FF000
T18DC 000:079.544 - 0.020ms returns 0
T18DC 000:079.563 JLINK_GetDebugInfo(0x100 = JLINKARM_ROM_TABLE_ADDR_INDEX)
T18DC 000:079.571   Value=0xE00FF000
T18DC 000:079.580 - 0.020ms returns 0
T18DC 000:079.588 JLINK_GetDebugInfo(0x101 = JLINKARM_DEBUG_INFO_ETM_ADDR_INDEX)
T18DC 000:079.595   Value=0xE0041000
T18DC 000:079.616 - 0.031ms returns 0
T18DC 000:079.627 JLINK_ReadMemEx(0xE0041FD0, 0x20 Bytes, Flags = 0x02000004)
T18DC 000:079.649   CPU_ReadMem(32 bytes @ 0xE0041FD0)
T18DC 000:080.049   Data:  04 00 00 00 00 00 00 00 00 00 00 00 00 00 00 00 ...
T18DC 000:080.070 - 0.447ms returns 32 (0x20)
T18DC 000:080.082 JLINK_GetDebugInfo(0x102 = JLINKARM_DEBUG_INFO_MTB_ADDR_INDEX)
T18DC 000:080.090   Value=0x00000000
T18DC 000:080.100 - 0.021ms returns 0
T18DC 000:080.109 JLINK_GetDebugInfo(0x103 = JLINKARM_DEBUG_INFO_TPIU_ADDR_INDEX)
T18DC 000:080.116   Value=0xE0040000
T18DC 000:080.125 - 0.020ms returns 0
T18DC 000:080.133 JLINK_GetDebugInfo(0x104 = JLINKARM_DEBUG_INFO_ITM_ADDR_INDEX)
T18DC 000:080.140   Value=0xE0000000
T18DC 000:080.150 - 0.020ms returns 0
T18DC 000:080.158 JLINK_GetDebugInfo(0x105 = JLINKARM_DEBUG_INFO_DWT_ADDR_INDEX)
T18DC 000:080.165   Value=0xE0001000
T18DC 000:080.174 - 0.020ms returns 0
T18DC 000:080.181 JLINK_GetDebugInfo(0x106 = JLINKARM_DEBUG_INFO_FPB_ADDR_INDEX)
T18DC 000:080.188   Value=0xE0002000
T18DC 000:080.198 - 0.019ms returns 0
T18DC 000:080.206 JLINK_GetDebugInfo(0x107 = JLINKARM_DEBUG_INFO_NVIC_ADDR_INDEX)
T18DC 000:080.213   Value=0xE000E000
T18DC 000:080.222 - 0.019ms returns 0
T18DC 000:080.230 JLINK_GetDebugInfo(0x10C = JLINKARM_DEBUG_INFO_DBG_ADDR_INDEX)
T18DC 000:080.237   Value=0xE000EDF0
T18DC 000:080.246 - 0.019ms returns 0
T18DC 000:080.254 JLINK_GetDebugInfo(0x01 = Unknown)
T18DC 000:080.261   Value=0x00000001
T18DC 000:080.270 - 0.020ms returns 0
T18DC 000:080.278 JLINK_ReadMemU32(0xE000ED00, 0x1 Items)
T18DC 000:080.293   CPU_ReadMem(4 bytes @ 0xE000ED00)
T18DC 000:080.544   Data:  41 C2 0F 41
T18DC 000:080.559   Debug reg: CPUID
T18DC 000:080.569 - 0.293ms returns 1 (0x1)
T18DC 000:080.578 JLINK_GetDebugInfo(0x10F = JLINKARM_DEBUG_INFO_HAS_CORTEX_M_SECURITY_EXT_INDEX)
T18DC 000:080.586   Value=0x00000000
T18DC 000:080.595 - 0.020ms returns 0
T18DC 000:080.604 JLINK_HasError()
T18DC 000:080.612 JLINK_SetResetType(JLINKARM_CM3_RESET_TYPE_NORMAL)
T18DC 000:080.619 - 0.010ms returns JLINKARM_CM3_RESET_TYPE_NORMAL
T18DC 000:080.627 JLINK_Reset()
T18DC 000:080.641   CPU is running
T18DC 000:080.653   CPU_WriteMem(4 bytes @ 0xE000EDF0)
T18DC 000:080.879   CPU is running
T18DC 000:080.892   CPU_WriteMem(4 bytes @ 0xE000EDFC)
T18DC 000:081.145   Reset: Halt core after reset via DEMCR.VC_CORERESET.
T18DC 000:081.168   Reset: Reset device via AIRCR.SYSRESETREQ.
T18DC 000:081.179   CPU is running
T18DC 000:081.190   CPU_WriteMem(4 bytes @ 0xE000ED0C)
T18DC 000:132.881   CPU_ReadMem(4 bytes @ 0xE000EDF0)
T18DC 000:133.450   CPU_ReadMem(4 bytes @ 0xE000EDF0)
T18DC 000:133.956   CPU is running
T18DC 000:134.014   CPU_WriteMem(4 bytes @ 0xE000EDF0)
T18DC 000:134.468   CPU is running
T18DC 000:134.525   CPU_WriteMem(4 bytes @ 0xE000EDFC)
T18DC 000:140.565   CPU_ReadMem(4 bytes @ 0xE000EDF0)
T18DC 000:143.152   CPU_WriteMem(4 bytes @ 0xE000EDFC)
T18DC 000:143.577   CPU_WriteMem(4 bytes @ 0xE0001028)
T18DC 000:144.005   CPU_WriteMem(4 bytes @ 0xE0001038)
T18DC 000:144.412   CPU_WriteMem(4 bytes @ 0xE0001048)
T18DC 000:144.831   CPU_WriteMem(4 bytes @ 0xE0001058)
T18DC 000:145.280   CPU_WriteMem(4 bytes @ 0xE0002000)
T18DC 000:145.715   CPU_ReadMem(4 bytes @ 0xE000EDFC)
T18DC 000:146.191   CPU_ReadMem(4 bytes @ 0xE0001000)
T18DC 000:146.656 - 66.063ms
T18DC 000:146.727 JLINK_HasError()
T18DC 000:146.857 JLINK_ReadReg(R15 (PC))
T18DC 000:146.904 - 0.056ms returns 0x08000260
T18DC 000:146.929 JLINK_ReadReg(XPSR)
T18DC 000:146.951 - 0.030ms returns 0x01000000
T18DC 000:146.976 JLINK_Halt()
T18DC 000:146.994 - 0.027ms returns 0x00
T18DC 000:147.017 JLINK_ReadMemU32(0xE000EDF0, 0x1 Items)
T18DC 000:147.054   CPU_ReadMem(4 bytes @ 0xE000EDF0)
T18DC 000:147.487   Data:  03 00 03 00
T18DC 000:147.541   Debug reg: DHCSR
T18DC 000:147.568 - 0.561ms returns 1 (0x1)
T18DC 000:147.605 JLINK_WriteU32_64(0xE000EDF0, 0xA05F0003)
T18DC 000:147.628   Debug reg: DHCSR
T18DC 000:148.921   CPU_WriteMem(4 bytes @ 0xE000EDF0)
T18DC 000:149.407 - 1.853ms returns 0 (0x00000000)
T18DC 000:149.500 JLINK_WriteU32_64(0xE000EDFC, 0x01000000)
T18DC 000:149.538   Debug reg: DEMCR
T18DC 000:149.596   CPU_WriteMem(4 bytes @ 0xE000EDFC)
T18DC 000:149.995 - 0.524ms returns 0 (0x00000000)
T18DC 000:150.118 JLINK_GetHWStatus(...)
T18DC 000:150.406 - 0.322ms returns 0
T18DC 000:150.582 JLINK_GetNumBPUnits(Type = 0xFFFFFF00)
T18DC 000:150.623 - 0.052ms returns 0x06
T18DC 000:150.649 JLINK_GetNumBPUnits(Type = 0xF0)
T18DC 000:150.669 - 0.028ms returns 0x2000
T18DC 000:150.691 JLINK_GetNumWPUnits()
T18DC 000:150.709 - 0.027ms returns 4
T18DC 000:150.764 JLINK_GetSpeed()
T18DC 000:150.784 - 0.029ms returns 5000
T18DC 000:150.825 JLINK_ReadMemU32(0xE000E004, 0x1 Items)
T18DC 000:150.868   CPU_ReadMem(4 bytes @ 0xE000E004)
T18DC 000:151.382   Data:  02 00 00 00
T18DC 000:151.436 - 0.620ms returns 1 (0x1)
T18DC 000:151.551 JLINK_ReadMemU32(0xE000E004, 0x1 Items)
T18DC 000:151.591   CPU_ReadMem(4 bytes @ 0xE000E004)
T18DC 000:152.036   Data:  02 00 00 00
T18DC 000:152.089 - 0.548ms returns 1 (0x1)
T18DC 000:152.121 JLINK_WriteMemEx(0xE0001000, 0x0000001C Bytes, Flags = 0x02000004)
T18DC 000:152.146   Data:  01 00 00 00 00 00 00 00 00 00 00 00 00 00 00 00 ...
T18DC 000:152.196   CPU_WriteMem(28 bytes @ 0xE0001000)
T18DC 000:152.731 - 0.648ms returns 0x1C
T18DC 000:152.796 JLINK_HasError()
T18DC 000:152.824 JLINK_ReadReg(R15 (PC))
T18DC 000:152.852 - 0.039ms returns 0x08000260
T18DC 000:152.876 JLINK_ReadReg(XPSR)
T18DC 000:152.897 - 0.030ms returns 0x01000000
T18DC 000:187.621 JLINK_ReadMemEx(0xE0001004, 0x4 Bytes, Flags = 0x02000000)
T18DC 000:187.749   Data:  00 00 00 00
T18DC 000:187.784   Debug reg: DWT_CYCCNT
T18DC 000:187.811 - 0.200ms returns 4 (0x4)
T18DC 000:368.556 JLINK_HasError()
T18DC 000:368.722 JLINK_SetResetType(JLINKARM_CM3_RESET_TYPE_NORMAL)
T18DC 000:368.756 - 0.044ms returns JLINKARM_CM3_RESET_TYPE_NORMAL
T18DC 000:368.781 JLINK_Reset()
T18DC 000:368.830   CPU_WriteMem(4 bytes @ 0xE000EDF0)
T18DC 000:369.271   CPU_WriteMem(4 bytes @ 0xE000EDFC)
T18DC 000:369.722   Reset: Halt core after reset via DEMCR.VC_CORERESET.
T18DC 000:369.795   Reset: Reset device via AIRCR.SYSRESETREQ.
T18DC 000:369.832   CPU_WriteMem(4 bytes @ 0xE000ED0C)
T18DC 000:422.517   CPU_ReadMem(4 bytes @ 0xE000EDF0)
T18DC 000:423.153   CPU_ReadMem(4 bytes @ 0xE000EDF0)
T18DC 000:423.686   CPU_WriteMem(4 bytes @ 0xE000EDF0)
T18DC 000:424.207   CPU_WriteMem(4 bytes @ 0xE000EDFC)
T18DC 000:430.699   CPU_ReadMem(4 bytes @ 0xE000EDF0)
T18DC 000:433.114   CPU_WriteMem(4 bytes @ 0xE000EDFC)
T18DC 000:433.542   CPU_WriteMem(4 bytes @ 0xE0001028)
T18DC 000:433.959   CPU_WriteMem(4 bytes @ 0xE0001038)
T18DC 000:434.343   CPU_WriteMem(4 bytes @ 0xE0001048)
T18DC 000:434.732   CPU_WriteMem(4 bytes @ 0xE0001058)
T18DC 000:435.150   CPU_WriteMem(4 bytes @ 0xE0002000)
T18DC 000:435.702   CPU_ReadMem(4 bytes @ 0xE000EDFC)
T18DC 000:436.144   CPU_ReadMem(4 bytes @ 0xE0001000)
T18DC 000:436.548 - 67.803ms
T18DC 000:437.004 JLINK_HasError()
T18DC 000:437.058 JLINK_ReadReg(R15 (PC))
T18DC 000:437.104 - 0.062ms returns 0x08000260
T18DC 000:437.144 JLINK_ReadReg(XPSR)
T18DC 000:437.179 - 0.051ms returns 0x01000000
T18DC 000:437.321 JLINK_HasError()
T18DC 000:437.365 JLINK_ReadReg(R0)
T18DC 000:437.402 - 0.054ms returns 0x00000000
T18DC 000:437.440 JLINK_ReadReg(R1)
T18DC 000:437.472 - 0.048ms returns 0x00000000
T18DC 000:437.506 JLINK_ReadReg(R2)
T18DC 000:437.537 - 0.046ms returns 0x00000000
T18DC 000:437.571 JLINK_ReadReg(R3)
T18DC 000:437.601 - 0.065ms returns 0x00000000
T18DC 000:437.656 JLINK_ReadReg(R4)
T18DC 000:437.690 - 0.048ms returns 0x00000000
T18DC 000:437.727 JLINK_HasError()
T18DC 000:437.764 JLINK_ReadMemU32(0xE0001004, 0x1 Items)
T18DC 000:437.817   Data:  00 00 00 00
T18DC 000:437.861   Debug reg: DWT_CYCCNT
T18DC 000:437.902 - 0.153ms returns 1 (0x1)
T18DC 000:668.531 JLINK_ReadMemEx(0x08000260, 0x3C Bytes, Flags = 0x02000000)
T18DC 000:668.569   CPU_ReadMem(128 bytes @ 0x08000240)
T18DC 000:669.833    -- Updating C cache (128 bytes @ 0x08000240)
T18DC 000:669.903    -- Read from C cache (60 bytes @ 0x08000260)
T18DC 000:669.915   Data:  06 48 80 47 06 48 00 47 FE E7 FE E7 FE E7 FE E7 ...
T18DC 000:669.924 - 1.396ms returns 60 (0x3C)
T18DC 000:669.942 JLINK_ReadMemEx(0x08000260, 0x2 Bytes, Flags = 0x02000000)
T18DC 000:669.952    -- Read from C cache (2 bytes @ 0x08000260)
T18DC 000:669.961   Data:  06 48
T18DC 000:669.970 - 0.031ms returns 2 (0x2)
T18DC 000:670.037 JLINK_ReadMemEx(0x08000262, 0x2 Bytes, Flags = 0x02000000)
T18DC 000:670.045    -- Read from C cache (2 bytes @ 0x08000262)
T18DC 000:670.054   Data:  80 47
T18DC 000:670.063 - 0.028ms returns 2 (0x2)
T18DC 000:752.206 JLINK_ReadMemEx(0x40029000, 0x24 Bytes, Flags = 0x02000004)
T18DC 000:752.249   CPU_ReadMem(36 bytes @ 0x40029000)
T18DC 000:752.694   Data:  00 00 00 00 00 00 00 00 00 00 00 00 00 00 00 00 ...
T18DC 000:752.708 - 0.505ms returns 36 (0x24)
T18DC 000:752.721 JLINK_ReadMemEx(0x40029024, 0x4 Bytes, Flags = 0x02000004)
T18DC 000:752.732   CPU_ReadMem(4 bytes @ 0x40029024)
T18DC 000:752.987   Data:  00 00 00 00
T18DC 000:752.999 - 0.281ms returns 4 (0x4)
T18DC 000:753.010 JLINK_ReadMemEx(0x40029048, 0xC Bytes, Flags = 0x02000004)
T18DC 000:753.020   CPU_ReadMem(12 bytes @ 0x40029048)
T18DC 000:753.314   Data:  00 00 00 00 00 00 00 00 00 00 00 00
T18DC 000:753.325 - 0.318ms returns 12 (0xC)
T18DC 000:753.335 JLINK_ReadMemEx(0x40029054, 0x4 Bytes, Flags = 0x02000004)
T18DC 000:753.345   CPU_ReadMem(4 bytes @ 0x40029054)
T18DC 000:753.602   Data:  00 00 00 00
T18DC 000:753.613 - 0.281ms returns 4 (0x4)
T18DC 001:426.230 JLINK_ReadMemEx(0x08000260, 0x3C Bytes, Flags = 0x02000000)
T18DC 001:426.266    -- Read from C cache (60 bytes @ 0x08000260)
T18DC 001:426.279   Data:  06 48 80 47 06 48 00 47 FE E7 FE E7 FE E7 FE E7 ...
T18DC 001:426.288 - 0.061ms returns 60 (0x3C)
T18DC 001:426.297 JLINK_ReadMemEx(0x08000260, 0x2 Bytes, Flags = 0x02000000)
T18DC 001:426.305    -- Read from C cache (2 bytes @ 0x08000260)
T18DC 001:426.315   Data:  06 48
T18DC 001:426.324 - 0.031ms returns 2 (0x2)
T18DC 001:426.333 JLINK_ReadMemEx(0x08000262, 0x2 Bytes, Flags = 0x02000000)
T18DC 001:426.341    -- Read from C cache (2 bytes @ 0x08000262)
T18DC 001:426.350   Data:  80 47
T18DC 001:426.359 - 0.029ms returns 2 (0x2)
T18DC 001:426.376 JLINK_ReadMemEx(0x08000262, 0x2 Bytes, Flags = 0x02000000)
T18DC 001:426.384    -- Read from C cache (2 bytes @ 0x08000262)
T18DC 001:426.393   Data:  80 47
T18DC 001:426.402 - 0.029ms returns 2 (0x2)
T18DC 001:426.410 JLINK_ReadMemEx(0x08000264, 0x3C Bytes, Flags = 0x02000000)
T18DC 001:426.418    -- Read from C cache (60 bytes @ 0x08000264)
T18DC 001:426.428   Data:  06 48 00 47 FE E7 FE E7 FE E7 FE E7 FE E7 FE E7 ...
T18DC 001:426.438 - 0.030ms returns 60 (0x3C)
T18DC 001:426.445 JLINK_ReadMemEx(0x08000264, 0x2 Bytes, Flags = 0x02000000)
T18DC 001:426.453    -- Read from C cache (2 bytes @ 0x08000264)
T18DC 001:426.462   Data:  06 48
T18DC 001:426.476 - 0.034ms returns 2 (0x2)
T18DC 001:732.847 JLINK_HasError()
T18DC 001:732.885 JLINK_ReadReg(R0)
T18DC 001:733.206 - 0.335ms returns 0x00000000
T18DC 001:733.229 JLINK_ReadReg(R1)
T18DC 001:733.236 - 0.010ms returns 0x00000000
T18DC 001:733.243 JLINK_ReadReg(R2)
T18DC 001:733.249 - 0.008ms returns 0x00000000
T18DC 001:733.256 JLINK_ReadReg(R3)
T18DC 001:733.262 - 0.008ms returns 0x00000000
T18DC 001:733.269 JLINK_ReadReg(R4)
T18DC 001:733.275 - 0.008ms returns 0x00000000
T18DC 001:733.281 JLINK_ReadReg(R5)
T18DC 001:733.287 - 0.008ms returns 0x00000000
T18DC 001:733.293 JLINK_ReadReg(R6)
T18DC 001:733.299 - 0.008ms returns 0x00000000
T18DC 001:733.306 JLINK_ReadReg(R7)
T18DC 001:733.312 - 0.008ms returns 0x00000000
T18DC 001:733.318 JLINK_ReadReg(R8)
T18DC 001:733.330 - 0.014ms returns 0x00000000
T18DC 001:733.337 JLINK_ReadReg(R9)
T18DC 001:733.342 - 0.008ms returns 0x00000000
T18DC 001:733.349 JLINK_ReadReg(R10)
T18DC 001:733.355 - 0.008ms returns 0x00000000
T18DC 001:733.361 JLINK_ReadReg(R11)
T18DC 001:733.367 - 0.008ms returns 0x00000000
T18DC 001:733.377 JLINK_ReadReg(R12)
T18DC 001:733.386 - 0.011ms returns 0x00000000
T18DC 001:733.392 JLINK_ReadReg(R13 (SP))
T18DC 001:733.399 - 0.009ms returns 0x20013B68
T18DC 001:733.406 JLINK_ReadReg(R14)
T18DC 001:733.411 - 0.008ms returns 0xFFFFFFFF
T18DC 001:733.418 JLINK_ReadReg(R15 (PC))
T18DC 001:733.424 - 0.009ms returns 0x08000260
T18DC 001:733.431 JLINK_ReadReg(XPSR)
T18DC 001:733.437 - 0.008ms returns 0x01000000
T18DC 001:733.444 JLINK_ReadReg(MSP)
T18DC 001:733.449 - 0.008ms returns 0x20013B68
T18DC 001:733.456 JLINK_ReadReg(PSP)
T18DC 001:733.462 - 0.008ms returns 0x00000000
T18DC 001:733.468 JLINK_ReadReg(CFBP)
T18DC 001:733.474 - 0.008ms returns 0x00000000
T18DC 001:733.481 JLINK_ReadReg(FPSCR)
T18DC 001:736.167 - 2.709ms returns 0x00000000
T18DC 001:736.201 JLINK_ReadReg(FPS0)
T18DC 001:736.214 - 0.016ms returns 0x00000000
T18DC 001:736.223 JLINK_ReadReg(FPS1)
T18DC 001:736.230 - 0.011ms returns 0x00000000
T18DC 001:736.239 JLINK_ReadReg(FPS2)
T18DC 001:736.246 - 0.010ms returns 0x00000000
T18DC 001:736.254 JLINK_ReadReg(FPS3)
T18DC 001:736.261 - 0.010ms returns 0x00000000
T18DC 001:736.269 JLINK_ReadReg(FPS4)
T18DC 001:736.276 - 0.010ms returns 0x00000000
T18DC 001:736.284 JLINK_ReadReg(FPS5)
T18DC 001:736.291 - 0.010ms returns 0x00000000
T18DC 001:736.300 JLINK_ReadReg(FPS6)
T18DC 001:736.307 - 0.010ms returns 0x00000000
T18DC 001:736.315 JLINK_ReadReg(FPS7)
T18DC 001:736.322 - 0.010ms returns 0x00000000
T18DC 001:736.330 JLINK_ReadReg(FPS8)
T18DC 001:736.337 - 0.010ms returns 0x00000000
T18DC 001:736.345 JLINK_ReadReg(FPS9)
T18DC 001:736.352 - 0.010ms returns 0x00000000
T18DC 001:736.360 JLINK_ReadReg(FPS10)
T18DC 001:736.367 - 0.010ms returns 0x00000000
T18DC 001:736.375 JLINK_ReadReg(FPS11)
T18DC 001:736.382 - 0.010ms returns 0x00000000
T18DC 001:736.390 JLINK_ReadReg(FPS12)
T18DC 001:736.397 - 0.010ms returns 0x00000000
T18DC 001:736.405 JLINK_ReadReg(FPS13)
T18DC 001:736.412 - 0.010ms returns 0x00000000
T18DC 001:736.420 JLINK_ReadReg(FPS14)
T18DC 001:736.427 - 0.010ms returns 0x00000000
T18DC 001:736.435 JLINK_ReadReg(FPS15)
T18DC 001:736.442 - 0.010ms returns 0x00000000
T18DC 001:736.450 JLINK_ReadReg(FPS16)
T18DC 001:736.458 - 0.010ms returns 0x00000000
T18DC 001:736.466 JLINK_ReadReg(FPS17)
T18DC 001:736.473 - 0.010ms returns 0x00000000
T18DC 001:736.481 JLINK_ReadReg(FPS18)
T18DC 001:736.488 - 0.010ms returns 0x00000000
T18DC 001:736.496 JLINK_ReadReg(FPS19)
T18DC 001:736.503 - 0.011ms returns 0x00000000
T18DC 001:736.511 JLINK_ReadReg(FPS20)
T18DC 001:736.518 - 0.010ms returns 0x00000000
T18DC 001:736.526 JLINK_ReadReg(FPS21)
T18DC 001:736.533 - 0.010ms returns 0x00000000
T18DC 001:736.542 JLINK_ReadReg(FPS22)
T18DC 001:736.549 - 0.010ms returns 0x00000000
T18DC 001:736.557 JLINK_ReadReg(FPS23)
T18DC 001:736.564 - 0.010ms returns 0x00000000
T18DC 001:736.572 JLINK_ReadReg(FPS24)
T18DC 001:736.579 - 0.010ms returns 0x00000000
T18DC 001:736.587 JLINK_ReadReg(FPS25)
T18DC 001:736.594 - 0.010ms returns 0x00000000
T18DC 001:736.602 JLINK_ReadReg(FPS26)
T18DC 001:736.609 - 0.010ms returns 0x00000000
T18DC 001:736.617 JLINK_ReadReg(FPS27)
T18DC 001:736.624 - 0.010ms returns 0x00000000
T18DC 001:736.632 JLINK_ReadReg(FPS28)
T18DC 001:736.639 - 0.010ms returns 0x00000000
T18DC 001:736.647 JLINK_ReadReg(FPS29)
T18DC 001:736.655 - 0.010ms returns 0x00000000
T18DC 001:736.663 JLINK_ReadReg(FPS30)
T18DC 001:736.670 - 0.010ms returns 0x00000000
T18DC 001:736.678 JLINK_ReadReg(FPS31)
T18DC 001:736.685 - 0.010ms returns 0x00000000
T0E0C 001:790.690 JLINK_ReadMemEx(0x08000260, 0x2 Bytes, Flags = 0x02000000)
T0E0C 001:790.730    -- Read from C cache (2 bytes @ 0x08000260)
T0E0C 001:790.740   Data:  06 48
T0E0C 001:790.749 - 0.071ms returns 2 (0x2)
T0E0C 001:790.759 JLINK_HasError()
T0E0C 001:790.769 JLINK_SetBPEx(Addr = 0x0800735C, Type = 0xFFFFFFF2)
T0E0C 001:790.781 - 0.015ms returns 0x00000001
T0E0C 001:790.789 JLINK_HasError()
T0E0C 001:790.796 JLINK_HasError()
T0E0C 001:790.803 JLINK_Go()
T0E0C 001:790.831   CPU_ReadMem(4 bytes @ 0xE0001000)
T0E0C 001:791.166   CPU_WriteMem(4 bytes @ 0xE0002008)
T0E0C 001:791.188   CPU_WriteMem(4 bytes @ 0xE000200C)
T0E0C 001:791.198   CPU_WriteMem(4 bytes @ 0xE0002010)
T0E0C 001:791.207   CPU_WriteMem(4 bytes @ 0xE0002014)
T0E0C 001:791.216   CPU_WriteMem(4 bytes @ 0xE0002018)
T0E0C 001:791.224   CPU_WriteMem(4 bytes @ 0xE000201C)
T0E0C 001:792.249   CPU_WriteMem(4 bytes @ 0xE0001004)
T0E0C 001:792.880 - 2.088ms
T0E0C 001:893.402 JLINK_HasError()
T0E0C 001:893.442 JLINK_IsHalted()
T0E0C 001:895.216 - 1.791ms returns TRUE
T0E0C 001:895.243 JLINK_HasError()
T0E0C 001:895.252 JLINK_Halt()
T0E0C 001:895.259 - 0.009ms returns 0x00
T0E0C 001:895.266 JLINK_IsHalted()
T0E0C 001:895.272 - 0.009ms returns TRUE
T0E0C 001:895.280 JLINK_IsHalted()
T0E0C 001:895.285 - 0.008ms returns TRUE
T0E0C 001:895.292 JLINK_IsHalted()
T0E0C 001:895.299 - 0.009ms returns TRUE
T0E0C 001:895.306 JLINK_HasError()
T0E0C 001:895.314 JLINK_ReadReg(R15 (PC))
T0E0C 001:895.323 - 0.012ms returns 0x0800735C
T0E0C 001:895.330 JLINK_ReadReg(XPSR)
T0E0C 001:895.337 - 0.009ms returns 0x61000000
T0E0C 001:895.349 JLINK_HasError()
T0E0C 001:895.357 JLINK_ClrBPEx(BPHandle = 0x00000001)
T0E0C 001:895.365 - 0.015ms returns 0x00
T0E0C 001:895.378 JLINK_HasError()
T0E0C 001:895.389 JLINK_HasError()
T0E0C 001:895.396 JLINK_ReadMemU32(0xE000ED30, 0x1 Items)
T0E0C 001:895.412   CPU_ReadMem(4 bytes @ 0xE000ED30)
T0E0C 001:895.729   Data:  02 00 00 00
T0E0C 001:895.747 - 0.354ms returns 1 (0x1)
T0E0C 001:895.758 JLINK_ReadMemU32(0xE0001028, 0x1 Items)
T0E0C 001:895.772   CPU_ReadMem(4 bytes @ 0xE0001028)
T0E0C 001:896.126   Data:  00 00 00 00
T0E0C 001:896.152   Debug reg: DWT_FUNC[0]
T0E0C 001:896.166 - 0.413ms returns 1 (0x1)
T0E0C 001:896.182 JLINK_ReadMemU32(0xE0001038, 0x1 Items)
T0E0C 001:896.203   CPU_ReadMem(4 bytes @ 0xE0001038)
T0E0C 001:896.513   Data:  00 02 00 00
T0E0C 001:896.539   Debug reg: DWT_FUNC[1]
T0E0C 001:896.553 - 0.376ms returns 1 (0x1)
T0E0C 001:896.569 JLINK_ReadMemU32(0xE0001048, 0x1 Items)
T0E0C 001:896.591   CPU_ReadMem(4 bytes @ 0xE0001048)
T0E0C 001:896.875   Data:  00 00 00 00
T0E0C 001:896.900   Debug reg: DWT_FUNC[2]
T0E0C 001:896.915 - 0.350ms returns 1 (0x1)
T0E0C 001:896.930 JLINK_ReadMemU32(0xE0001058, 0x1 Items)
T0E0C 001:896.951   CPU_ReadMem(4 bytes @ 0xE0001058)
T0E0C 001:897.316   Data:  00 00 00 00
T0E0C 001:897.336   Debug reg: DWT_FUNC[3]
T0E0C 001:897.344 - 0.417ms returns 1 (0x1)
T0E0C 001:897.462 JLINK_HasError()
T0E0C 001:897.474 JLINK_ReadReg(R0)
T0E0C 001:897.486 - 0.015ms returns 0x0800735D
T0E0C 001:897.494 JLINK_ReadReg(R1)
T0E0C 001:897.501 - 0.009ms returns 0x10003B64
T0E0C 001:897.508 JLINK_ReadReg(R2)
T0E0C 001:897.514 - 0.009ms returns 0x00000000
T0E0C 001:897.522 JLINK_ReadReg(R3)
T0E0C 001:897.528 - 0.009ms returns 0x08002D2D
T0E0C 001:897.535 JLINK_ReadReg(R4)
T0E0C 001:897.542 - 0.009ms returns 0x08015480
T0E0C 001:897.549 JLINK_ReadReg(R5)
T0E0C 001:897.555 - 0.009ms returns 0x08015480
T0E0C 001:897.562 JLINK_ReadReg(R6)
T0E0C 001:897.569 - 0.009ms returns 0x00000000
T0E0C 001:897.576 JLINK_ReadReg(R7)
T0E0C 001:897.582 - 0.009ms returns 0x00000000
T0E0C 001:897.589 JLINK_ReadReg(R8)
T0E0C 001:897.596 - 0.009ms returns 0x00000000
T0E0C 001:897.603 JLINK_ReadReg(R9)
T0E0C 001:897.609 - 0.009ms returns 0x00000000
T0E0C 001:897.616 JLINK_ReadReg(R10)
T0E0C 001:897.623 - 0.009ms returns 0x00000000
T0E0C 001:897.630 JLINK_ReadReg(R11)
T0E0C 001:897.636 - 0.009ms returns 0x00000000
T0E0C 001:897.643 JLINK_ReadReg(R12)
T0E0C 001:897.650 - 0.009ms returns 0x00000000
T0E0C 001:897.657 JLINK_ReadReg(R13 (SP))
T0E0C 001:897.664 - 0.010ms returns 0x20013B68
T0E0C 001:897.671 JLINK_ReadReg(R14)
T0E0C 001:897.678 - 0.009ms returns 0x08000955
T0E0C 001:897.685 JLINK_ReadReg(R15 (PC))
T0E0C 001:897.692 - 0.010ms returns 0x0800735C
T0E0C 001:897.699 JLINK_ReadReg(XPSR)
T0E0C 001:897.705 - 0.009ms returns 0x61000000
T0E0C 001:897.713 JLINK_ReadReg(MSP)
T0E0C 001:897.719 - 0.009ms returns 0x20013B68
T0E0C 001:897.729 JLINK_ReadReg(PSP)
T0E0C 001:897.738 - 0.012ms returns 0x00000000
T0E0C 001:897.746 JLINK_ReadReg(CFBP)
T0E0C 001:897.752 - 0.009ms returns 0x00000000
T0E0C 001:897.759 JLINK_ReadReg(FPSCR)
T0E0C 001:900.356 - 2.622ms returns 0x00000000
T0E0C 001:900.395 JLINK_ReadReg(FPS0)
T0E0C 001:900.410 - 0.021ms returns 0x00000000
T0E0C 001:900.423 JLINK_ReadReg(FPS1)
T0E0C 001:900.434 - 0.016ms returns 0x00000000
T0E0C 001:900.445 JLINK_ReadReg(FPS2)
T0E0C 001:900.456 - 0.015ms returns 0x00000000
T0E0C 001:900.466 JLINK_ReadReg(FPS3)
T0E0C 001:900.476 - 0.014ms returns 0x00000000
T0E0C 001:900.487 JLINK_ReadReg(FPS4)
T0E0C 001:900.497 - 0.015ms returns 0x00000000
T0E0C 001:900.508 JLINK_ReadReg(FPS5)
T0E0C 001:900.519 - 0.015ms returns 0x00000000
T0E0C 001:900.530 JLINK_ReadReg(FPS6)
T0E0C 001:900.540 - 0.014ms returns 0x00000000
T0E0C 001:900.552 JLINK_ReadReg(FPS7)
T0E0C 001:900.562 - 0.015ms returns 0x00000000
T0E0C 001:900.573 JLINK_ReadReg(FPS8)
T0E0C 001:900.584 - 0.015ms returns 0x00000000
T0E0C 001:900.595 JLINK_ReadReg(FPS9)
T0E0C 001:900.605 - 0.015ms returns 0x00000000
T0E0C 001:900.616 JLINK_ReadReg(FPS10)
T0E0C 001:900.626 - 0.015ms returns 0x00000000
T0E0C 001:900.637 JLINK_ReadReg(FPS11)
T0E0C 001:900.648 - 0.015ms returns 0x00000000
T0E0C 001:900.659 JLINK_ReadReg(FPS12)
T0E0C 001:900.670 - 0.015ms returns 0x00000000
T0E0C 001:900.681 JLINK_ReadReg(FPS13)
T0E0C 001:900.691 - 0.014ms returns 0x00000000
T0E0C 001:900.702 JLINK_ReadReg(FPS14)
T0E0C 001:900.712 - 0.015ms returns 0x00000000
T0E0C 001:900.723 JLINK_ReadReg(FPS15)
T0E0C 001:900.733 - 0.015ms returns 0x00000000
T0E0C 001:900.745 JLINK_ReadReg(FPS16)
T0E0C 001:900.755 - 0.014ms returns 0x00000000
T0E0C 001:900.766 JLINK_ReadReg(FPS17)
T0E0C 001:900.776 - 0.015ms returns 0x00000000
T0E0C 001:900.787 JLINK_ReadReg(FPS18)
T0E0C 001:900.798 - 0.015ms returns 0x00000000
T0E0C 001:900.810 JLINK_ReadReg(FPS19)
T0E0C 001:900.817 - 0.010ms returns 0x00000000
T0E0C 001:900.824 JLINK_ReadReg(FPS20)
T0E0C 001:900.831 - 0.009ms returns 0x00000000
T0E0C 001:900.838 JLINK_ReadReg(FPS21)
T0E0C 001:900.844 - 0.009ms returns 0x00000000
T0E0C 001:900.852 JLINK_ReadReg(FPS22)
T0E0C 001:900.858 - 0.009ms returns 0x00000000
T0E0C 001:900.866 JLINK_ReadReg(FPS23)
T0E0C 001:900.872 - 0.009ms returns 0x00000000
T0E0C 001:900.879 JLINK_ReadReg(FPS24)
T0E0C 001:900.885 - 0.009ms returns 0x00000000
T0E0C 001:900.892 JLINK_ReadReg(FPS25)
T0E0C 001:900.899 - 0.009ms returns 0x00000000
T0E0C 001:900.906 JLINK_ReadReg(FPS26)
T0E0C 001:900.912 - 0.009ms returns 0x00000000
T0E0C 001:900.919 JLINK_ReadReg(FPS27)
T0E0C 001:900.926 - 0.009ms returns 0x00000000
T0E0C 001:900.933 JLINK_ReadReg(FPS28)
T0E0C 001:900.939 - 0.009ms returns 0x00000000
T0E0C 001:900.946 JLINK_ReadReg(FPS29)
T0E0C 001:900.953 - 0.009ms returns 0x00000000
T0E0C 001:900.960 JLINK_ReadReg(FPS30)
T0E0C 001:900.966 - 0.009ms returns 0x00000000
T0E0C 001:900.973 JLINK_ReadReg(FPS31)
T0E0C 001:900.979 - 0.009ms returns 0x00000000
T0E0C 001:900.991 JLINK_ReadMemEx(0x1000004C, 0x4 Bytes, Flags = 0x02000000)
T0E0C 001:901.009   CPU_ReadMem(4 bytes @ 0x1000004C)
T0E0C 001:901.306   Data:  00 00 00 00
T0E0C 001:901.327 - 0.339ms returns 4 (0x4)
T18DC 001:906.285 JLINK_HasError()
T18DC 001:906.318 JLINK_ReadMemU32(0xE0001004, 0x1 Items)
T18DC 001:906.351   CPU_ReadMem(4 bytes @ 0xE0001004)
T18DC 001:906.687   Data:  5A 1E 03 00
T18DC 001:906.711   Debug reg: DWT_CYCCNT
T18DC 001:906.721 - 0.406ms returns 1 (0x1)
T0E0C 004:014.980 JLINK_ReadMemEx(0x0800735C, 0x2 Bytes, Flags = 0x02000000)
T0E0C 004:015.037   CPU_ReadMem(64 bytes @ 0x08007340)
T0E0C 004:015.744    -- Updating C cache (64 bytes @ 0x08007340)
T0E0C 004:015.788    -- Read from C cache (2 bytes @ 0x0800735C)
T0E0C 004:015.805   Data:  FA F7
T0E0C 004:015.818 - 0.843ms returns 2 (0x2)
T0E0C 004:015.835 JLINK_HasError()
T0E0C 004:015.848 JLINK_HasError()
T0E0C 004:015.861 JLINK_Go()
T0E0C 004:016.175   CPU_ReadMem(4 bytes @ 0xE0001000)
T0E0C 004:016.488   CPU_WriteMem(4 bytes @ 0xE0002008)
T0E0C 004:017.273 - 1.493ms
T0E0C 004:117.707 JLINK_HasError()
T0E0C 004:117.792 JLINK_IsHalted()
T0E0C 004:118.253 - 0.495ms returns FALSE
T0E0C 004:218.888 JLINK_HasError()
T0E0C 004:218.961 JLINK_IsHalted()
T0E0C 004:219.410 - 0.484ms returns FALSE
T0E0C 004:320.074 JLINK_HasError()
T0E0C 004:320.156 JLINK_IsHalted()
T0E0C 004:320.562 - 0.441ms returns FALSE
T0E0C 004:421.300 JLINK_HasError()
T0E0C 004:421.372 JLINK_IsHalted()
T0E0C 004:421.837 - 0.501ms returns FALSE
T0E0C 004:522.296 JLINK_HasError()
T0E0C 004:522.370 JLINK_IsHalted()
T0E0C 004:522.793 - 0.457ms returns FALSE
T0E0C 004:622.980 JLINK_HasError()
T0E0C 004:623.053 JLINK_HasError()
T0E0C 004:623.076 JLINK_ReadMemU32(0xE0001004, 0x1 Items)
T0E0C 004:623.127   CPU_ReadMem(4 bytes @ 0xE0001004)
T0E0C 004:623.617   Data:  5A A3 83 06
T0E0C 004:623.673   Debug reg: DWT_CYCCNT
T0E0C 004:623.701 - 0.634ms returns 1 (0x1)
T0E0C 004:624.014 JLINK_IsHalted()
T0E0C 004:624.525 - 0.544ms returns FALSE
T0E0C 004:725.205 JLINK_HasError()
T0E0C 004:725.249 JLINK_IsHalted()
T0E0C 004:725.532 - 0.298ms returns FALSE
T0E0C 004:826.301 JLINK_HasError()
T0E0C 004:826.354 JLINK_IsHalted()
T0E0C 004:826.643 - 0.306ms returns FALSE
T0E0C 004:926.728 JLINK_HasError()
T0E0C 004:926.759 JLINK_IsHalted()
T0E0C 004:927.094 - 0.344ms returns FALSE
T0E0C 005:027.534 JLINK_HasError()
T0E0C 005:027.630 JLINK_IsHalted()
T0E0C 005:028.081 - 0.492ms returns FALSE
T0E0C 005:128.769 JLINK_HasError()
T0E0C 005:128.840 JLINK_IsHalted()
T0E0C 005:129.354 - 0.550ms returns FALSE
T0E0C 005:229.488 JLINK_HasError()
T0E0C 005:229.547 JLINK_HasError()
T0E0C 005:229.568 JLINK_ReadMemU32(0xE0001004, 0x1 Items)
T0E0C 005:229.609   Data:  5A A3 83 06
T0E0C 005:229.628   Debug reg: DWT_CYCCNT
T0E0C 005:229.643 - 0.080ms returns 1 (0x1)
T0E0C 005:229.830 JLINK_IsHalted()
T0E0C 005:230.206 - 0.394ms returns FALSE
T0E0C 005:331.290 JLINK_HasError()
T0E0C 005:331.361 JLINK_IsHalted()
T0E0C 005:331.843 - 0.516ms returns FALSE
T0E0C 005:432.797 JLINK_HasError()
T0E0C 005:432.873 JLINK_IsHalted()
T0E0C 005:433.373 - 0.535ms returns FALSE
T0E0C 005:533.626 JLINK_HasError()
T0E0C 005:533.696 JLINK_IsHalted()
T0E0C 005:534.166 - 0.522ms returns FALSE
T0E0C 005:634.379 JLINK_HasError()
T0E0C 005:634.450 JLINK_Halt()
T0E0C 005:636.635 - 2.232ms returns 0x00
T0E0C 005:636.707 JLINK_IsHalted()
T0E0C 005:636.732 - 0.034ms returns TRUE
T0E0C 005:636.755 JLINK_IsHalted()
T0E0C 005:636.775 - 0.028ms returns TRUE
T0E0C 005:636.797 JLINK_IsHalted()
T0E0C 005:636.816 - 0.028ms returns TRUE
T0E0C 005:636.839 JLINK_HasError()
T0E0C 005:636.864 JLINK_ReadReg(R15 (PC))
T0E0C 005:636.890 - 0.036ms returns 0x08001B64
T0E0C 005:636.914 JLINK_ReadReg(XPSR)
T0E0C 005:636.935 - 0.030ms returns 0x81000000
T0E0C 005:636.968 JLINK_HasError()
T0E0C 005:636.992 JLINK_HasError()
T0E0C 005:637.014 JLINK_ReadMemU32(0xE000ED30, 0x1 Items)
T0E0C 005:637.053   CPU_ReadMem(4 bytes @ 0xE000ED30)
T0E0C 005:637.522   Data:  01 00 00 00
T0E0C 005:637.578 - 0.574ms returns 1 (0x1)
T0E0C 005:637.610 JLINK_ReadMemU32(0xE0001028, 0x1 Items)
T0E0C 005:637.651   CPU_ReadMem(4 bytes @ 0xE0001028)
T0E0C 005:638.095   Data:  00 00 00 00
T0E0C 005:638.149   Debug reg: DWT_FUNC[0]
T0E0C 005:638.177 - 0.578ms returns 1 (0x1)
T0E0C 005:638.208 JLINK_ReadMemU32(0xE0001038, 0x1 Items)
T0E0C 005:638.249   CPU_ReadMem(4 bytes @ 0xE0001038)
T0E0C 005:638.733   Data:  00 02 00 00
T0E0C 005:638.787   Debug reg: DWT_FUNC[1]
T0E0C 005:638.815 - 0.617ms returns 1 (0x1)
T0E0C 005:638.846 JLINK_ReadMemU32(0xE0001048, 0x1 Items)
T0E0C 005:638.886   CPU_ReadMem(4 bytes @ 0xE0001048)
T0E0C 005:639.407   Data:  00 00 00 00
T0E0C 005:639.461   Debug reg: DWT_FUNC[2]
T0E0C 005:639.489 - 0.652ms returns 1 (0x1)
T0E0C 005:639.530 JLINK_ReadMemU32(0xE0001058, 0x1 Items)
T0E0C 005:639.627   CPU_ReadMem(4 bytes @ 0xE0001058)
T0E0C 005:640.069   Data:  00 00 00 00
T0E0C 005:640.123   Debug reg: DWT_FUNC[3]
T0E0C 005:640.151 - 0.631ms returns 1 (0x1)
T0E0C 005:640.427 JLINK_HasError()
T0E0C 005:640.465 JLINK_ReadReg(R0)
T0E0C 005:640.492 - 0.038ms returns 0x00000653
T0E0C 005:640.528 JLINK_ReadReg(R1)
T0E0C 005:640.561 - 0.048ms returns 0x00000850
T0E0C 005:640.596 JLINK_ReadReg(R2)
T0E0C 005:640.627 - 0.045ms returns 0x40028000
T0E0C 005:640.659 JLINK_ReadReg(R3)
T0E0C 005:640.691 - 0.046ms returns 0x000007C0
T0E0C 005:640.724 JLINK_ReadReg(R4)
T0E0C 005:640.756 - 0.046ms returns 0x200072E8
T0E0C 005:640.790 JLINK_ReadReg(R5)
T0E0C 005:640.814 - 0.034ms returns 0x00000851
T0E0C 005:640.838 JLINK_ReadReg(R6)
T0E0C 005:640.858 - 0.029ms returns 0x00000653
T0E0C 005:640.881 JLINK_ReadReg(R7)
T0E0C 005:640.901 - 0.029ms returns 0x00000001
T0E0C 005:640.923 JLINK_ReadReg(R8)
T0E0C 005:640.943 - 0.029ms returns 0x00010000
T0E0C 005:640.966 JLINK_ReadReg(R9)
T0E0C 005:640.986 - 0.030ms returns 0x200075B0
T0E0C 005:641.009 JLINK_ReadReg(R10)
T0E0C 005:641.029 - 0.029ms returns 0x00000000
T0E0C 005:641.051 JLINK_ReadReg(R11)
T0E0C 005:641.071 - 0.029ms returns 0x00000000
T0E0C 005:641.094 JLINK_ReadReg(R12)
T0E0C 005:641.113 - 0.029ms returns 0x00030000
T0E0C 005:641.135 JLINK_ReadReg(R13 (SP))
T0E0C 005:641.157 - 0.031ms returns 0x20007590
T0E0C 005:641.180 JLINK_ReadReg(R14)
T0E0C 005:641.200 - 0.029ms returns 0x080016BD
T0E0C 005:641.222 JLINK_ReadReg(R15 (PC))
T0E0C 005:641.243 - 0.030ms returns 0x08001B64
T0E0C 005:641.265 JLINK_ReadReg(XPSR)
T0E0C 005:641.286 - 0.030ms returns 0x81000000
T0E0C 005:641.308 JLINK_ReadReg(MSP)
T0E0C 005:641.328 - 0.029ms returns 0x20013B48
T0E0C 005:641.351 JLINK_ReadReg(PSP)
T0E0C 005:641.370 - 0.029ms returns 0x20007590
T0E0C 005:641.393 JLINK_ReadReg(CFBP)
T0E0C 005:641.413 - 0.029ms returns 0x02000000
T0E0C 005:641.435 JLINK_ReadReg(FPSCR)
T0E0C 005:644.453 - 3.066ms returns 0x00000000
T0E0C 005:644.528 JLINK_ReadReg(FPS0)
T0E0C 005:644.559 - 0.041ms returns 0x00000000
T0E0C 005:644.583 JLINK_ReadReg(FPS1)
T0E0C 005:644.605 - 0.031ms returns 0x00000000
T0E0C 005:644.627 JLINK_ReadReg(FPS2)
T0E0C 005:644.648 - 0.030ms returns 0x00000000
T0E0C 005:644.671 JLINK_ReadReg(FPS3)
T0E0C 005:644.691 - 0.030ms returns 0x00000000
T0E0C 005:644.714 JLINK_ReadReg(FPS4)
T0E0C 005:644.734 - 0.029ms returns 0x00000000
T0E0C 005:644.757 JLINK_ReadReg(FPS5)
T0E0C 005:644.777 - 0.030ms returns 0x00000000
T0E0C 005:644.799 JLINK_ReadReg(FPS6)
T0E0C 005:644.819 - 0.029ms returns 0x00000000
T0E0C 005:644.844 JLINK_ReadReg(FPS7)
T0E0C 005:644.864 - 0.029ms returns 0x00000000
T0E0C 005:644.886 JLINK_ReadReg(FPS8)
T0E0C 005:644.906 - 0.029ms returns 0x00000000
T0E0C 005:644.929 JLINK_ReadReg(FPS9)
T0E0C 005:644.949 - 0.029ms returns 0x00000000
T0E0C 005:644.972 JLINK_ReadReg(FPS10)
T0E0C 005:644.992 - 0.029ms returns 0x00000000
T0E0C 005:645.014 JLINK_ReadReg(FPS11)
T0E0C 005:645.034 - 0.029ms returns 0x00000000
T0E0C 005:645.056 JLINK_ReadReg(FPS12)
T0E0C 005:645.077 - 0.030ms returns 0x00000000
T0E0C 005:645.099 JLINK_ReadReg(FPS13)
T0E0C 005:645.119 - 0.029ms returns 0x00000000
T0E0C 005:645.141 JLINK_ReadReg(FPS14)
T0E0C 005:645.161 - 0.028ms returns 0x00000000
T0E0C 005:645.183 JLINK_ReadReg(FPS15)
T0E0C 005:645.203 - 0.029ms returns 0x00000000
T0E0C 005:645.225 JLINK_ReadReg(FPS16)
T0E0C 005:645.245 - 0.030ms returns 0x00000000
T0E0C 005:645.267 JLINK_ReadReg(FPS17)
T0E0C 005:645.287 - 0.029ms returns 0x00000000
T0E0C 005:645.309 JLINK_ReadReg(FPS18)
T0E0C 005:645.329 - 0.028ms returns 0x00000000
T0E0C 005:645.362 JLINK_ReadReg(FPS19)
T0E0C 005:645.386 - 0.034ms returns 0x00000000
T0E0C 005:645.410 JLINK_ReadReg(FPS20)
T0E0C 005:645.429 - 0.029ms returns 0x00000000
T0E0C 005:645.452 JLINK_ReadReg(FPS21)
T0E0C 005:645.472 - 0.029ms returns 0x00000000
T0E0C 005:645.494 JLINK_ReadReg(FPS22)
T0E0C 005:645.514 - 0.029ms returns 0x00000000
T0E0C 005:645.536 JLINK_ReadReg(FPS23)
T0E0C 005:645.556 - 0.029ms returns 0x00000000
T0E0C 005:645.578 JLINK_ReadReg(FPS24)
T0E0C 005:645.598 - 0.029ms returns 0x00000000
T0E0C 005:645.620 JLINK_ReadReg(FPS25)
T0E0C 005:645.640 - 0.037ms returns 0x00000000
T0E0C 005:645.675 JLINK_ReadReg(FPS26)
T0E0C 005:645.696 - 0.030ms returns 0x00000000
T0E0C 005:645.718 JLINK_ReadReg(FPS27)
T0E0C 005:645.739 - 0.029ms returns 0x00000000
T0E0C 005:645.761 JLINK_ReadReg(FPS28)
T0E0C 005:645.781 - 0.029ms returns 0x00000000
T0E0C 005:645.803 JLINK_ReadReg(FPS29)
T0E0C 005:645.824 - 0.029ms returns 0x00000000
T0E0C 005:645.846 JLINK_ReadReg(FPS30)
T0E0C 005:645.866 - 0.029ms returns 0x00000000
T0E0C 005:645.888 JLINK_ReadReg(FPS31)
T0E0C 005:645.908 - 0.029ms returns 0x00000000
T0E0C 005:645.938 JLINK_ReadMemEx(0x1000004C, 0x4 Bytes, Flags = 0x02000000)
T0E0C 005:645.983   CPU_ReadMem(4 bytes @ 0x1000004C)
T0E0C 005:646.472   Data:  04 00 00 00
T0E0C 005:646.526 - 0.598ms returns 4 (0x4)
T0E0C 005:646.563 JLINK_ReadMemEx(0x1000003C, 0x4 Bytes, Flags = 0x02000000)
T0E0C 005:646.606   CPU_ReadMem(4 bytes @ 0x1000003C)
T0E0C 005:647.049   Data:  A8 76 00 20
T0E0C 005:647.102 - 0.550ms returns 4 (0x4)
T18DC 005:650.106 JLINK_ReadMemEx(0x200075AC, 0x4 Bytes, Flags = 0x02000000)
T18DC 005:650.177   CPU_ReadMem(64 bytes @ 0x20007580)
T18DC 005:650.915    -- Updating C cache (64 bytes @ 0x20007580)
T18DC 005:650.985    -- Read from C cache (4 bytes @ 0x200075AC)
T18DC 005:651.016   Data:  3F 14 00 08
T18DC 005:651.045 - 0.949ms returns 4 (0x4)
T18DC 005:651.259 JLINK_ReadMemEx(0x20007590, 0x4 Bytes, Flags = 0x02000000)
T18DC 005:651.301    -- Read from C cache (4 bytes @ 0x20007590)
T18DC 005:651.329   Data:  E8 72 00 20
T18DC 005:651.357 - 0.107ms returns 4 (0x4)
T18DC 005:651.381 JLINK_ReadMemEx(0x20007594, 0x4 Bytes, Flags = 0x02000000)
T18DC 005:651.415    -- Read from C cache (4 bytes @ 0x20007594)
T18DC 005:651.443   Data:  01 00 00 00
T18DC 005:651.470 - 0.098ms returns 4 (0x4)
T18DC 005:651.493 JLINK_ReadMemEx(0x20007598, 0x4 Bytes, Flags = 0x02000000)
T18DC 005:651.517    -- Read from C cache (4 bytes @ 0x20007598)
T18DC 005:651.544   Data:  00 00 00 00
T18DC 005:651.571 - 0.087ms returns 4 (0x4)
T18DC 005:651.594 JLINK_ReadMemEx(0x2000759C, 0x4 Bytes, Flags = 0x02000000)
T18DC 005:651.617    -- Read from C cache (4 bytes @ 0x2000759C)
T18DC 005:651.644   Data:  88 13 00 00
T18DC 005:651.671 - 0.086ms returns 4 (0x4)
T18DC 005:651.693 JLINK_ReadMemEx(0x200075A0, 0x4 Bytes, Flags = 0x02000000)
T18DC 005:651.716    -- Read from C cache (4 bytes @ 0x200075A0)
T18DC 005:651.744   Data:  02 01 00 00
T18DC 005:651.770 - 0.086ms returns 4 (0x4)
T18DC 005:651.793 JLINK_ReadMemEx(0x200075A4, 0x4 Bytes, Flags = 0x02000000)
T18DC 005:651.816    -- Read from C cache (4 bytes @ 0x200075A4)
T18DC 005:651.844   Data:  00 00 00 00
T18DC 005:651.870 - 0.086ms returns 4 (0x4)
T18DC 005:651.892 JLINK_ReadMemEx(0x200075A8, 0x4 Bytes, Flags = 0x02000000)
T18DC 005:651.915    -- Read from C cache (4 bytes @ 0x200075A8)
T18DC 005:651.942   Data:  00 00 00 00
T18DC 005:651.969 - 0.086ms returns 4 (0x4)
T18DC 005:651.991 JLINK_ReadMemEx(0x200075AC, 0x4 Bytes, Flags = 0x02000000)
T18DC 005:652.015    -- Read from C cache (4 bytes @ 0x200075AC)
T18DC 005:652.042   Data:  3F 14 00 08
T18DC 005:652.069 - 0.086ms returns 4 (0x4)
T18DC 005:652.098 JLINK_ReadMemEx(0x200075D4, 0x4 Bytes, Flags = 0x02000000)
T18DC 005:652.132   CPU_ReadMem(64 bytes @ 0x200075C0)
T18DC 005:652.928    -- Updating C cache (64 bytes @ 0x200075C0)
T18DC 005:653.002    -- Read from C cache (4 bytes @ 0x200075D4)
T18DC 005:653.033   Data:  A7 63 00 08
T18DC 005:653.062 - 0.974ms returns 4 (0x4)
T18DC 005:653.950 JLINK_ReadMemEx(0x200075B8, 0x4 Bytes, Flags = 0x02000000)
T18DC 005:653.995    -- Read from C cache (4 bytes @ 0x200075B8)
T18DC 005:654.025   Data:  30 73 00 20
T18DC 005:654.052 - 0.112ms returns 4 (0x4)
T18DC 005:654.078 JLINK_ReadMemEx(0x200075BC, 0x4 Bytes, Flags = 0x02000000)
T18DC 005:654.103    -- Read from C cache (4 bytes @ 0x200075BC)
T18DC 005:654.131   Data:  E8 72 00 20
T18DC 005:654.158 - 0.088ms returns 4 (0x4)
T18DC 005:654.180 JLINK_ReadMemEx(0x200075C0, 0x4 Bytes, Flags = 0x02000000)
T18DC 005:654.204    -- Read from C cache (4 bytes @ 0x200075C0)
T18DC 005:654.242   Data:  00 00 00 00
T18DC 005:654.270 - 0.098ms returns 4 (0x4)
T18DC 005:654.292 JLINK_ReadMemEx(0x200075C4, 0x4 Bytes, Flags = 0x02000000)
T18DC 005:654.316    -- Read from C cache (4 bytes @ 0x200075C4)
T18DC 005:654.344   Data:  1D 4C 00 08
T18DC 005:654.370 - 0.088ms returns 4 (0x4)
T18DC 005:654.393 JLINK_ReadMemEx(0x200075C8, 0x4 Bytes, Flags = 0x02000000)
T18DC 005:654.416    -- Read from C cache (4 bytes @ 0x200075C8)
T18DC 005:654.444   Data:  00 00 00 00
T18DC 005:654.470 - 0.086ms returns 4 (0x4)
T18DC 005:654.493 JLINK_ReadMemEx(0x200075CC, 0x4 Bytes, Flags = 0x02000000)
T18DC 005:654.516    -- Read from C cache (4 bytes @ 0x200075CC)
T18DC 005:654.543   Data:  00 00 00 00
T18DC 005:654.570 - 0.086ms returns 4 (0x4)
T18DC 005:654.592 JLINK_ReadMemEx(0x200075D0, 0x4 Bytes, Flags = 0x02000000)
T18DC 005:654.615    -- Read from C cache (4 bytes @ 0x200075D0)
T18DC 005:654.643   Data:  00 00 00 00
T18DC 005:654.669 - 0.087ms returns 4 (0x4)
T18DC 005:654.692 JLINK_ReadMemEx(0x200075D4, 0x4 Bytes, Flags = 0x02000000)
T18DC 005:654.716    -- Read from C cache (4 bytes @ 0x200075D4)
T18DC 005:654.743   Data:  A7 63 00 08
T18DC 005:654.770 - 0.087ms returns 4 (0x4)
T18DC 005:654.799 JLINK_ReadMemEx(0x20007614, 0x4 Bytes, Flags = 0x02000000)
T18DC 005:654.841   CPU_ReadMem(64 bytes @ 0x20007600)
T18DC 005:655.703    -- Updating C cache (64 bytes @ 0x20007600)
T18DC 005:655.773    -- Read from C cache (4 bytes @ 0x20007614)
T18DC 005:655.804   Data:  4B 4C 00 08
T18DC 005:655.832 - 1.043ms returns 4 (0x4)
T18DC 005:655.886 JLINK_ReadMemEx(0x20007608, 0x4 Bytes, Flags = 0x02000000)
T18DC 005:655.924    -- Read from C cache (4 bytes @ 0x20007608)
T18DC 005:655.953   Data:  30 73 00 20
T18DC 005:655.979 - 0.103ms returns 4 (0x4)
T18DC 005:656.003 JLINK_ReadMemEx(0x2000760C, 0x4 Bytes, Flags = 0x02000000)
T18DC 005:656.028    -- Read from C cache (4 bytes @ 0x2000760C)
T18DC 005:656.055   Data:  EC 40 00 20
T18DC 005:656.082 - 0.088ms returns 4 (0x4)
T18DC 005:656.123 JLINK_ReadMemEx(0x20007610, 0x4 Bytes, Flags = 0x02000000)
T18DC 005:656.149    -- Read from C cache (4 bytes @ 0x20007610)
T18DC 005:656.177   Data:  00 00 00 00
T18DC 005:656.204 - 0.090ms returns 4 (0x4)
T18DC 005:656.233 JLINK_ReadMemEx(0x20007614, 0x4 Bytes, Flags = 0x02000000)
T18DC 005:656.257    -- Read from C cache (4 bytes @ 0x20007614)
T18DC 005:656.285   Data:  4B 4C 00 08
T18DC 005:656.312 - 0.089ms returns 4 (0x4)
T18DC 005:656.343 JLINK_ReadMemEx(0x2000761C, 0x4 Bytes, Flags = 0x02000000)
T18DC 005:656.368    -- Read from C cache (4 bytes @ 0x2000761C)
T18DC 005:656.396   Data:  57 A1 00 08
T18DC 005:656.422 - 0.088ms returns 4 (0x4)
T18DC 005:657.578 JLINK_ReadMemEx(0x20007618, 0x4 Bytes, Flags = 0x02000000)
T18DC 005:657.618    -- Read from C cache (4 bytes @ 0x20007618)
T18DC 005:657.647   Data:  30 73 00 20
T18DC 005:657.674 - 0.105ms returns 4 (0x4)
T18DC 005:657.699 JLINK_ReadMemEx(0x2000761C, 0x4 Bytes, Flags = 0x02000000)
T18DC 005:657.723    -- Read from C cache (4 bytes @ 0x2000761C)
T18DC 005:657.751   Data:  57 A1 00 08
T18DC 005:657.778 - 0.088ms returns 4 (0x4)
T18DC 005:657.806 JLINK_ReadMemEx(0x2000763C, 0x4 Bytes, Flags = 0x02000000)
T18DC 005:657.831    -- Read from C cache (4 bytes @ 0x2000763C)
T18DC 005:657.859   Data:  0D 29 00 08
T18DC 005:657.885 - 0.089ms returns 4 (0x4)
T18DC 005:658.426 JLINK_ReadMemEx(0x20007620, 0x4 Bytes, Flags = 0x02000000)
T18DC 005:658.464    -- Read from C cache (4 bytes @ 0x20007620)
T18DC 005:658.493   Data:  A8 00 00 00
T18DC 005:658.521 - 0.104ms returns 4 (0x4)
T18DC 005:658.545 JLINK_ReadMemEx(0x20007624, 0x4 Bytes, Flags = 0x02000000)
T18DC 005:658.569    -- Read from C cache (4 bytes @ 0x20007624)
T18DC 005:658.597   Data:  2C 00 00 10
T18DC 005:658.623 - 0.087ms returns 4 (0x4)
T18DC 005:658.645 JLINK_ReadMemEx(0x20007628, 0x4 Bytes, Flags = 0x02000000)
T18DC 005:658.668    -- Read from C cache (4 bytes @ 0x20007628)
T18DC 005:658.696   Data:  30 00 00 10
T18DC 005:658.722 - 0.093ms returns 4 (0x4)
T18DC 005:658.756 JLINK_ReadMemEx(0x2000762C, 0x4 Bytes, Flags = 0x02000000)
T18DC 005:658.780    -- Read from C cache (4 bytes @ 0x2000762C)
T18DC 005:658.807   Data:  00 00 00 00
T18DC 005:658.834 - 0.087ms returns 4 (0x4)
T18DC 005:658.856 JLINK_ReadMemEx(0x20007630, 0x4 Bytes, Flags = 0x02000000)
T18DC 005:658.879    -- Read from C cache (4 bytes @ 0x20007630)
T18DC 005:658.907   Data:  00 00 00 00
T18DC 005:658.933 - 0.086ms returns 4 (0x4)
T18DC 005:658.956 JLINK_ReadMemEx(0x20007634, 0x4 Bytes, Flags = 0x02000000)
T18DC 005:658.979    -- Read from C cache (4 bytes @ 0x20007634)
T18DC 005:659.007   Data:  00 00 00 00
T18DC 005:659.033 - 0.087ms returns 4 (0x4)
T18DC 005:659.056 JLINK_ReadMemEx(0x20007638, 0x4 Bytes, Flags = 0x02000000)
T18DC 005:659.079    -- Read from C cache (4 bytes @ 0x20007638)
T18DC 005:659.113   Data:  00 00 00 00
T18DC 005:659.140 - 0.093ms returns 4 (0x4)
T18DC 005:659.163 JLINK_ReadMemEx(0x2000763C, 0x4 Bytes, Flags = 0x02000000)
T18DC 005:659.187    -- Read from C cache (4 bytes @ 0x2000763C)
T18DC 005:659.214   Data:  0D 29 00 08
T18DC 005:659.240 - 0.087ms returns 4 (0x4)
T18DC 005:659.268 JLINK_ReadMemEx(0x20007684, 0x4 Bytes, Flags = 0x02000000)
T18DC 005:659.305   CPU_ReadMem(64 bytes @ 0x20007680)
T18DC 005:660.095    -- Updating C cache (64 bytes @ 0x20007680)
T18DC 005:660.184    -- Read from C cache (4 bytes @ 0x20007684)
T18DC 005:660.215   Data:  E3 2D 01 08
T18DC 005:660.244 - 0.986ms returns 4 (0x4)
T18DC 005:660.955 JLINK_ReadMemEx(0x20007674, 0x4 Bytes, Flags = 0x02000000)
T18DC 005:661.013   CPU_ReadMem(64 bytes @ 0x20007640)
T18DC 005:661.858    -- Updating C cache (64 bytes @ 0x20007640)
T18DC 005:661.929    -- Read from C cache (4 bytes @ 0x20007674)
T18DC 005:661.960   Data:  00 00 00 00
